T1310 000:019.084   SEGGER J-Link V7.50 Log File
T1310 000:019.206   DLL Compiled: Jul  1 2021 17:37:28
T1310 000:019.220   Logging started @ 2025-12-22 03:24
T1310 000:019.233 - 19.240ms
T1310 000:019.254 JLINK_SetWarnOutHandler(...)
T1310 000:019.269 - 0.021ms
T1310 000:019.283 JLINK_OpenEx(...)
T1310 000:021.832   Firmware: J-Link V9 compiled May  7 2021 16:26:12
T1310 000:022.692   Firmware: J-Link V9 compiled May  7 2021 16:26:12
T1310 000:022.915   Decompressing FW timestamp took 144 us
T1310 000:032.375   Hardware: V9.70
T1310 000:032.433   S/N: 150710617
T1310 000:032.474   OEM: SEGGER
T1310 000:032.516   Feature(s): GDB, RDI, FlashBP, FlashDL, JFlash
T1310 000:035.296   TELNET listener socket opened on port 19021
T1310 000:035.411   WEBSRV Starting webserver
T1310 000:035.659   WEBSRV Webserver running on local port 19080
T1310 000:035.683 - 16.406ms returns "O.K."
T1310 000:035.714 JLINK_GetEmuCaps()
T1310 000:035.728 - 0.020ms returns 0xB9FF7BBF
T1310 000:035.749 JLINK_TIF_GetAvailable(...)
T1310 000:036.376 - 0.642ms
T1310 000:036.407 JLINK_SetErrorOutHandler(...)
T1310 000:036.420 - 0.020ms
T1310 000:036.457 JLINK_ExecCommand("ProjectFile = "E:\stm32CubeMXproject\BCU_debug\MDK-ARM\JLinkSettings.ini"", ...). 
T1310 000:044.775   Ref file found at: D:\Software\Keil\Keil_v5\ARM\Segger\JLinkDevices.ref
T1310 000:045.072   XML referenced by ref file: C:\Program Files\SEGGER\JLink\JLinkDevices.xml
T1310 000:045.740   C:\Program Files\SEGGER\JLink\JLinkDevices.xml evaluated successfully.
T1310 000:148.035 - 111.603ms returns 0x00
T1310 000:148.120 JLINK_ExecCommand("Device = STM32H743BITx", ...). 
T1310 000:152.083   Device "STM32H743BI" selected.
T1310 000:152.594 - 4.468ms returns 0x00
T1310 000:152.622 JLINK_GetHardwareVersion()
T1310 000:152.636 - 0.020ms returns 97000
T1310 000:152.650 JLINK_GetDLLVersion()
T1310 000:152.667 - 0.022ms returns 75000
T1310 000:152.681 JLINK_GetOEMString(...)
T1310 000:152.696 JLINK_GetFirmwareString(...)
T1310 000:152.709 - 0.019ms
T1310 000:152.741 JLINK_GetDLLVersion()
T1310 000:152.754 - 0.019ms returns 75000
T1310 000:152.768 JLINK_GetCompileDateTime()
T1310 000:152.782 - 0.019ms
T1310 000:152.799 JLINK_GetFirmwareString(...)
T1310 000:152.812 - 0.019ms
T1310 000:152.829 JLINK_GetHardwareVersion()
T1310 000:152.841 - 0.018ms returns 97000
T1310 000:152.858 JLINK_GetSN()
T1310 000:152.872 - 0.019ms returns 150710617
T1310 000:152.888 JLINK_GetOEMString(...)
T1310 000:152.908 JLINK_TIF_Select(JLINKARM_TIF_SWD)
T1310 000:155.568 - 2.678ms returns 0x00
T1310 000:155.597 JLINK_HasError()
T1310 000:155.631 JLINK_SetSpeed(5000)
T1310 000:156.202 - 0.585ms
T1310 000:156.229 JLINK_GetId()
T1310 000:156.921   ConfigTargetSettings() start
T1310 000:156.962    J-Link Script File: Executing ConfigTargetSettings()
T1310 000:157.026   ConfigTargetSettings() end
T1310 000:159.045   Found SW-DP with ID 0x6BA02477
T1310 000:211.958   Found SW-DP with ID 0x6BA02477
T1310 000:217.275   DPIDR: 0x6BA02477
T1310 000:217.335   Scanning AP map to find all available APs
T1310 000:220.264   AP[3]: Stopped AP scan as end of AP map has been reached
T1310 000:220.330   AP[0]: AHB-AP (IDR: 0x84770001)
T1310 000:220.364   AP[1]: AHB-AP (IDR: 0x84770001)
T1310 000:220.395   AP[2]: APB-AP (IDR: 0x54770002)
T1310 000:220.428   Iterating through AP map to find AHB-AP to use
T1310 000:222.119   AP[0]: Core found
T1310 000:222.151   AP[0]: AHB-AP ROM base: 0xE00FE000
T1310 000:222.956   CPUID register: 0x411FC271. Implementer code: 0x41 (ARM)
T1310 000:222.984   Found Cortex-M7 r1p1, Little endian.
T1310 000:325.221   -- Max. mem block: 0x00010C40
T1310 000:326.813   CPU_ReadMem(4 bytes @ 0xE000EDF0)
T1310 000:327.596   CPU_ReadMem(4 bytes @ 0xE0002000)
T1310 000:328.377   FPUnit: 8 code (BP) slots and 0 literal slots
T1310 000:328.401   CPU_ReadMem(4 bytes @ 0xE000EDFC)
T1310 000:329.092   CPU_ReadMem(4 bytes @ 0xE0001000)
T1310 000:329.860   CPU_WriteMem(4 bytes @ 0xE0001000)
T1310 000:330.602   CPU_ReadMem(4 bytes @ 0xE000ED88)
T1310 000:331.350   CPU_WriteMem(4 bytes @ 0xE000ED88)
T1310 000:332.103   CPU_ReadMem(4 bytes @ 0xE000ED88)
T1310 000:332.855   CPU_WriteMem(4 bytes @ 0xE000ED88)
T1310 000:333.653   CoreSight components:
T1310 000:333.693   ROMTbl[0] @ E00FE000
T1310 000:333.722   CPU_ReadMem(64 bytes @ 0xE00FE000)
T1310 000:334.722   CPU_ReadMem(32 bytes @ 0xE00FFFE0)
T1310 000:335.602   ROMTbl[0][0]: E00FF000, CID: B105100D, PID: 000BB4C7 ROM Table
T1310 000:335.629   ROMTbl[1] @ E00FF000
T1310 000:335.648   CPU_ReadMem(64 bytes @ 0xE00FF000)
T1310 000:336.599   CPU_ReadMem(32 bytes @ 0xE000EFE0)
T1310 000:337.477   ROMTbl[1][0]: E000E000, CID: B105E00D, PID: 000BB00C SCS-M7
T1310 000:337.510   CPU_ReadMem(32 bytes @ 0xE0001FE0)
T1310 000:338.383   ROMTbl[1][1]: E0001000, CID: B105E00D, PID: 000BB002 DWT
T1310 000:338.428   CPU_ReadMem(32 bytes @ 0xE0002FE0)
T1310 000:339.599   ROMTbl[1][2]: E0002000, CID: B105E00D, PID: 000BB00E FPB-M7
T1310 000:339.644   CPU_ReadMem(32 bytes @ 0xE0000FE0)
T1310 000:340.475   ROMTbl[1][3]: E0000000, CID: B105E00D, PID: 000BB001 ITM
T1310 000:340.515   CPU_ReadMem(32 bytes @ 0xE0041FE0)
T1310 000:341.346   ROMTbl[0][1]: E0041000, CID: B105900D, PID: 001BB975 ETM-M7
T1310 000:341.382   CPU_ReadMem(32 bytes @ 0xE0043FE0)
T1310 000:342.239   ROMTbl[0][2]: E0043000, CID: B105900D, PID: 004BB906 CTI
T1310 000:342.271   CPU_ReadMem(4 bytes @ 0xE000ED78)
T1310 000:342.991   Cache: Separate I- and D-cache.
T1310 000:343.014   CPU_WriteMem(4 bytes @ 0xE000ED84)
T1310 000:343.742   CPU_ReadMem(4 bytes @ 0xE000ED80)
T1310 000:344.478   I-Cache L1: 16 KiB, 256 Sets, 32 Bytes/Line, 2-Way
T1310 000:344.501   CPU_WriteMem(4 bytes @ 0xE000ED84)
T1310 000:345.235   CPU_ReadMem(4 bytes @ 0xE000ED80)
T1310 000:345.984   D-Cache L1: 16 KiB, 128 Sets, 32 Bytes/Line, 4-Way
T1310 000:346.663 - 190.444ms returns 0x6BA02477
T1310 000:346.696 JLINK_GetDLLVersion()
T1310 000:346.709 - 0.019ms returns 75000
T1310 000:346.726 JLINK_CORE_GetFound()
T1310 000:346.738 - 0.019ms returns 0xE0100FF
T1310 000:346.754 JLINK_GetDebugInfo(0x100 = JLINKARM_ROM_TABLE_ADDR_INDEX)
T1310 000:346.768   Value=0xE00FE000
T1310 000:346.787 - 0.038ms returns 0
T1310 000:346.854 JLINK_GetDebugInfo(0x100 = JLINKARM_ROM_TABLE_ADDR_INDEX)
T1310 000:346.871   Value=0xE00FE000
T1310 000:346.889 - 0.041ms returns 0
T1310 000:346.903 JLINK_GetDebugInfo(0x101 = JLINKARM_DEBUG_INFO_ETM_ADDR_INDEX)
T1310 000:346.916   Value=0xE0041000
T1310 000:346.934 - 0.036ms returns 0
T1310 000:346.955 JLINK_ReadMemEx(0xE0041FD0, 0x20 Bytes, Flags = 0x02000004)
T1310 000:346.992   CPU_ReadMem(32 bytes @ 0xE0041FD0)
T1310 000:347.842   Data:  04 00 00 00 00 00 00 00 00 00 00 00 00 00 00 00 ...
T1310 000:347.864 - 0.915ms returns 32 (0x20)
T1310 000:347.880 JLINK_GetDebugInfo(0x102 = JLINKARM_DEBUG_INFO_MTB_ADDR_INDEX)
T1310 000:347.893   Value=0x00000000
T1310 000:347.911 - 0.037ms returns 0
T1310 000:347.924 JLINK_GetDebugInfo(0x103 = JLINKARM_DEBUG_INFO_TPIU_ADDR_INDEX)
T1310 000:347.937   Value=0xE00F5000
T1310 000:347.955 - 0.036ms returns 0
T1310 000:347.968 JLINK_GetDebugInfo(0x104 = JLINKARM_DEBUG_INFO_ITM_ADDR_INDEX)
T1310 000:347.980   Value=0xE0000000
T1310 000:347.999 - 0.037ms returns 0
T1310 000:348.012 JLINK_GetDebugInfo(0x105 = JLINKARM_DEBUG_INFO_DWT_ADDR_INDEX)
T1310 000:348.025   Value=0xE0001000
T1310 000:348.049 - 0.043ms returns 0
T1310 000:348.063 JLINK_GetDebugInfo(0x106 = JLINKARM_DEBUG_INFO_FPB_ADDR_INDEX)
T1310 000:348.075   Value=0xE0002000
T1310 000:348.093 - 0.036ms returns 0
T1310 000:348.107 JLINK_GetDebugInfo(0x107 = JLINKARM_DEBUG_INFO_NVIC_ADDR_INDEX)
T1310 000:348.119   Value=0xE000E000
T1310 000:348.137 - 0.036ms returns 0
T1310 000:348.151 JLINK_GetDebugInfo(0x10C = JLINKARM_DEBUG_INFO_DBG_ADDR_INDEX)
T1310 000:348.163   Value=0xE000EDF0
T1310 000:348.181 - 0.037ms returns 0
T1310 000:348.195 JLINK_GetDebugInfo(0x01 = Unknown)
T1310 000:348.207   Value=0x00000001
T1310 000:348.226 - 0.037ms returns 0
T1310 000:348.239 JLINK_ReadMemU32(0xE000ED00, 0x1 Items)
T1310 000:348.255   CPU_ReadMem(4 bytes @ 0xE000ED00)
T1310 000:348.982   Data:  71 C2 1F 41
T1310 000:349.015   Debug reg: CPUID
T1310 000:349.042 - 0.811ms returns 1 (0x1)
T1310 000:349.063 JLINK_GetDebugInfo(0x10F = JLINKARM_DEBUG_INFO_HAS_CORTEX_M_SECURITY_EXT_INDEX)
T1310 000:349.082   Value=0x00000000
T1310 000:349.108 - 0.054ms returns 0
T1310 000:349.128 JLINK_HasError()
T1310 000:349.148 JLINK_SetResetType(JLINKARM_CM3_RESET_TYPE_NORMAL)
T1310 000:349.167 - 0.027ms returns JLINKARM_CM3_RESET_TYPE_NORMAL
T1310 000:349.187 JLINK_Reset()
T1310 000:349.227   CPU is running
T1310 000:349.256   CPU_WriteMem(4 bytes @ 0xE000EDF0)
T1310 000:349.988   CPU is running
T1310 000:350.021   CPU_WriteMem(4 bytes @ 0xE000EDFC)
T1310 000:350.733   Reset: Halt core after reset via DEMCR.VC_CORERESET.
T1310 000:352.037   Reset: Reset device via AIRCR.SYSRESETREQ.
T1310 000:352.071   CPU is running
T1310 000:352.099   CPU_WriteMem(4 bytes @ 0xE000ED0C)
T1310 000:405.983   CPU_ReadMem(4 bytes @ 0xE000EDF0)
T1310 000:406.844   CPU_ReadMem(4 bytes @ 0xE000EDF0)
T1310 000:407.701   CPU is running
T1310 000:407.744   CPU_WriteMem(4 bytes @ 0xE000EDF0)
T1310 000:408.479   CPU is running
T1310 000:408.522   CPU_WriteMem(4 bytes @ 0xE000EDFC)
T1310 000:414.353   CPU_ReadMem(4 bytes @ 0xE000EDF0)
T1310 000:417.945   CPU_WriteMem(4 bytes @ 0xE0002000)
T1310 000:418.735   CPU_ReadMem(4 bytes @ 0xE000EDFC)
T1310 000:419.471   CPU_ReadMem(4 bytes @ 0xE0001000)
T1310 000:420.244 - 71.072ms
T1310 000:420.337 JLINK_HasError()
T1310 000:420.370 JLINK_ReadReg(R15 (PC))
T1310 000:420.400 - 0.039ms returns 0x08000370
T1310 000:420.421 JLINK_ReadReg(XPSR)
T1310 000:420.440 - 0.028ms returns 0x01000000
T1310 000:420.461 JLINK_Halt()
T1310 000:420.479 - 0.027ms returns 0x00
T1310 000:420.499 JLINK_ReadMemU32(0xE000EDF0, 0x1 Items)
T1310 000:420.525   CPU_ReadMem(4 bytes @ 0xE000EDF0)
T1310 000:421.235   Data:  03 00 03 00
T1310 000:421.274   Debug reg: DHCSR
T1310 000:421.301 - 0.810ms returns 1 (0x1)
T1310 000:421.332 JLINK_WriteU32_64(0xE000EDF0, 0xA05F0003)
T1310 000:421.347   Debug reg: DHCSR
T1310 000:421.574   CPU_WriteMem(4 bytes @ 0xE000EDF0)
T1310 000:422.353 - 1.036ms returns 0 (0x00000000)
T1310 000:422.381 JLINK_WriteU32_64(0xE000EDFC, 0x01000000)
T1310 000:422.400   Debug reg: DEMCR
T1310 000:422.433   CPU_WriteMem(4 bytes @ 0xE000EDFC)
T1310 000:423.224 - 0.856ms returns 0 (0x00000000)
T1310 000:423.303 JLINK_GetHWStatus(...)
T1310 000:423.876 - 0.596ms returns 0
T1310 000:423.939 JLINK_GetNumBPUnits(Type = 0xFFFFFF00)
T1310 000:423.960 - 0.030ms returns 0x08
T1310 000:423.980 JLINK_GetNumBPUnits(Type = 0xF0)
T1310 000:423.999 - 0.027ms returns 0x2000
T1310 000:424.019 JLINK_GetNumWPUnits()
T1310 000:424.037 - 0.027ms returns 4
T1310 000:424.067 JLINK_GetSpeed()
T1310 000:424.086 - 0.027ms returns 4000
T1310 000:424.112 JLINK_ReadMemU32(0xE000E004, 0x1 Items)
T1310 000:424.137   CPU_ReadMem(4 bytes @ 0xE000E004)
T1310 000:424.888   Data:  04 00 00 00
T1310 000:424.937 - 0.834ms returns 1 (0x1)
T1310 000:424.960 JLINK_ReadMemU32(0xE000E004, 0x1 Items)
T1310 000:424.986   CPU_ReadMem(4 bytes @ 0xE000E004)
T1310 000:425.727   Data:  04 00 00 00
T1310 000:425.754 - 0.800ms returns 1 (0x1)
T1310 000:425.770 JLINK_WriteMemEx(0xE0001000, 0x0000001C Bytes, Flags = 0x02000004)
T1310 000:425.783   Data:  01 00 00 00 00 00 00 00 00 00 00 00 00 00 00 00 ...
T1310 000:425.810   CPU_WriteMem(28 bytes @ 0xE0001000)
T1310 000:426.572 - 0.816ms returns 0x1C
T1310 000:426.597 JLINK_HasError()
T1310 000:426.611 JLINK_ReadReg(R15 (PC))
T1310 000:426.626 - 0.021ms returns 0x08000370
T1310 000:426.639 JLINK_ReadReg(XPSR)
T1310 000:426.652 - 0.019ms returns 0x01000000
T1310 000:429.650 JLINK_ReadMemEx(0xE0001004, 0x4 Bytes, Flags = 0x02000000)
T1310 000:429.676   Data:  00 00 00 00
T1310 000:429.695   Debug reg: DWT_CYCCNT
T1310 000:429.714 - 0.069ms returns 4 (0x4)
T1310 000:589.406 JLINK_HasError()
T1310 000:589.464 JLINK_SetResetType(JLINKARM_CM3_RESET_TYPE_NORMAL)
T1310 000:589.479 - 0.021ms returns JLINKARM_CM3_RESET_TYPE_NORMAL
T1310 000:589.501 JLINK_Reset()
T1310 000:589.529   CPU_WriteMem(4 bytes @ 0xE000EDF0)
T1310 000:590.244   CPU_WriteMem(4 bytes @ 0xE000EDFC)
T1310 000:591.015   Reset: Halt core after reset via DEMCR.VC_CORERESET.
T1310 000:592.288   Reset: Reset device via AIRCR.SYSRESETREQ.
T1310 000:592.324   CPU_WriteMem(4 bytes @ 0xE000ED0C)
T1310 000:646.795   CPU_ReadMem(4 bytes @ 0xE000EDF0)
T1310 000:647.606   CPU_ReadMem(4 bytes @ 0xE000EDF0)
T1310 000:648.362   CPU_WriteMem(4 bytes @ 0xE000EDF0)
T1310 000:649.119   CPU_WriteMem(4 bytes @ 0xE000EDFC)
T1310 000:655.454   CPU_ReadMem(4 bytes @ 0xE000EDF0)
T1310 000:658.933   CPU_WriteMem(4 bytes @ 0xE0002000)
T1310 000:659.743   CPU_ReadMem(4 bytes @ 0xE000EDFC)
T1310 000:660.486   CPU_ReadMem(4 bytes @ 0xE0001000)
T1310 000:661.240 - 71.756ms
T1310 000:661.414 JLINK_HasError()
T1310 000:661.437 JLINK_ReadReg(R15 (PC))
T1310 000:661.459 - 0.031ms returns 0x08000370
T1310 000:661.480 JLINK_ReadReg(XPSR)
T1310 000:661.499 - 0.027ms returns 0x01000000
T1310 000:662.111 JLINK_ReadMemEx(0x08000370, 0x3C Bytes, Flags = 0x02000000)
T1310 000:662.146   CPU_ReadMem(128 bytes @ 0x08000340)
T1310 000:663.390    -- Updating C cache (128 bytes @ 0x08000340)
T1310 000:663.413    -- Read from C cache (60 bytes @ 0x08000370)
T1310 000:663.433   Data:  06 48 80 47 06 48 00 47 FE E7 FE E7 FE E7 FE E7 ...
T1310 000:663.451 - 1.346ms returns 60 (0x3C)
T1310 000:663.466 JLINK_ReadMemEx(0x08000370, 0x2 Bytes, Flags = 0x02000000)
T1310 000:663.479    -- Read from C cache (2 bytes @ 0x08000370)
T1310 000:663.497   Data:  06 48
T1310 000:663.516 - 0.056ms returns 2 (0x2)
T1310 000:663.580 JLINK_ReadMemEx(0x08000372, 0x2 Bytes, Flags = 0x02000000)
T1310 000:663.594    -- Read from C cache (2 bytes @ 0x08000372)
T1310 000:663.612   Data:  80 47
T1310 000:663.630 - 0.056ms returns 2 (0x2)
T1310 002:683.744 JLINK_ReadMemEx(0x08000372, 0x2 Bytes, Flags = 0x02000000)
T1310 002:683.791    -- Read from C cache (2 bytes @ 0x08000372)
T1310 002:683.812   Data:  80 47
T1310 002:683.832 - 0.095ms returns 2 (0x2)
T1310 002:683.849 JLINK_ReadMemEx(0x08000374, 0x3C Bytes, Flags = 0x02000000)
T1310 002:683.863    -- Read from C cache (60 bytes @ 0x08000374)
T1310 002:683.882   Data:  06 48 00 47 FE E7 FE E7 FE E7 FE E7 FE E7 FE E7 ...
T1310 002:683.901 - 0.059ms returns 60 (0x3C)
T1310 002:683.915 JLINK_ReadMemEx(0x08000374, 0x2 Bytes, Flags = 0x02000000)
T1310 002:683.929    -- Read from C cache (2 bytes @ 0x08000374)
T1310 002:683.948   Data:  06 48
T1310 002:683.976 - 0.067ms returns 2 (0x2)
T1310 003:146.119 JLINK_HasError()
T1310 003:146.170 JLINK_ReadReg(R0)
T1310 003:146.964 - 0.822ms returns 0x00000000
T1310 003:147.008 JLINK_ReadReg(R1)
T1310 003:147.027 - 0.029ms returns 0x00000000
T1310 003:147.051 JLINK_ReadReg(R2)
T1310 003:147.073 - 0.030ms returns 0x00000000
T1310 003:147.089 JLINK_ReadReg(R3)
T1310 003:147.103 - 0.020ms returns 0x00000000
T1310 003:147.118 JLINK_ReadReg(R4)
T1310 003:147.140 - 0.033ms returns 0x00000000
T1310 003:147.165 JLINK_ReadReg(R5)
T1310 003:147.187 - 0.031ms returns 0x00000000
T1310 003:147.209 JLINK_ReadReg(R6)
T1310 003:147.231 - 0.029ms returns 0x00000000
T1310 003:147.249 JLINK_ReadReg(R7)
T1310 003:147.289 - 0.051ms returns 0x00000000
T1310 003:147.315 JLINK_ReadReg(R8)
T1310 003:147.389 - 0.085ms returns 0x00000000
T1310 003:147.413 JLINK_ReadReg(R9)
T1310 003:147.435 - 0.032ms returns 0x00000000
T1310 003:147.457 JLINK_ReadReg(R10)
T1310 003:147.478 - 0.032ms returns 0x00000000
T1310 003:147.503 JLINK_ReadReg(R11)
T1310 003:147.524 - 0.030ms returns 0x00000000
T1310 003:147.545 JLINK_ReadReg(R12)
T1310 003:147.563 - 0.028ms returns 0x00000000
T1310 003:147.584 JLINK_ReadReg(R13 (SP))
T1310 003:147.604 - 0.029ms returns 0x24074670
T1310 003:147.624 JLINK_ReadReg(R14)
T1310 003:147.642 - 0.027ms returns 0xFFFFFFFF
T1310 003:147.661 JLINK_ReadReg(R15 (PC))
T1310 003:147.681 - 0.027ms returns 0x08000370
T1310 003:147.700 JLINK_ReadReg(XPSR)
T1310 003:147.718 - 0.027ms returns 0x01000000
T1310 003:147.818 JLINK_ReadReg(MSP)
T1310 003:147.844 - 0.034ms returns 0x24074670
T1310 003:147.863 JLINK_ReadReg(PSP)
T1310 003:147.882 - 0.027ms returns 0x00000000
T1310 003:147.901 JLINK_ReadReg(CFBP)
T1310 003:147.919 - 0.027ms returns 0x00000000
T1310 003:147.939 JLINK_ReadReg(FPSCR)
T1310 003:151.768 - 3.853ms returns 0x00000000
T1310 003:151.808 JLINK_ReadReg(FPS0)
T1310 003:151.826 - 0.025ms returns 0x00000000
T1310 003:151.842 JLINK_ReadReg(FPS1)
T1310 003:151.856 - 0.021ms returns 0x00000000
T1310 003:151.871 JLINK_ReadReg(FPS2)
T1310 003:151.885 - 0.020ms returns 0x00000000
T1310 003:151.899 JLINK_ReadReg(FPS3)
T1310 003:151.913 - 0.020ms returns 0x00000000
T1310 003:151.929 JLINK_ReadReg(FPS4)
T1310 003:151.943 - 0.021ms returns 0x00000000
T1310 003:151.958 JLINK_ReadReg(FPS5)
T1310 003:151.972 - 0.020ms returns 0x00000000
T1310 003:151.986 JLINK_ReadReg(FPS6)
T1310 003:152.000 - 0.020ms returns 0x00000000
T1310 003:152.015 JLINK_ReadReg(FPS7)
T1310 003:152.028 - 0.020ms returns 0x00000000
T1310 003:152.043 JLINK_ReadReg(FPS8)
T1310 003:152.057 - 0.020ms returns 0x00000000
T1310 003:152.072 JLINK_ReadReg(FPS9)
T1310 003:152.085 - 0.020ms returns 0x00000000
T1310 003:152.100 JLINK_ReadReg(FPS10)
T1310 003:152.114 - 0.020ms returns 0x00000000
T1310 003:152.128 JLINK_ReadReg(FPS11)
T1310 003:152.142 - 0.020ms returns 0x00000000
T1310 003:152.157 JLINK_ReadReg(FPS12)
T1310 003:152.170 - 0.020ms returns 0x00000000
T1310 003:152.185 JLINK_ReadReg(FPS13)
T1310 003:152.199 - 0.020ms returns 0x00000000
T1310 003:152.213 JLINK_ReadReg(FPS14)
T1310 003:152.227 - 0.020ms returns 0x00000000
T1310 003:152.241 JLINK_ReadReg(FPS15)
T1310 003:152.255 - 0.020ms returns 0xFFFFFFFF
T1310 003:152.270 JLINK_ReadReg(FPS16)
T1310 003:152.283 - 0.020ms returns 0x00000000
T1310 003:152.298 JLINK_ReadReg(FPS17)
T1310 003:152.312 - 0.020ms returns 0x00000000
T1310 003:152.327 JLINK_ReadReg(FPS18)
T1310 003:152.341 - 0.020ms returns 0x00000000
T1310 003:152.355 JLINK_ReadReg(FPS19)
T1310 003:152.369 - 0.020ms returns 0x00000000
T1310 003:152.383 JLINK_ReadReg(FPS20)
T1310 003:152.397 - 0.020ms returns 0x00000000
T1310 003:152.411 JLINK_ReadReg(FPS21)
T1310 003:152.425 - 0.020ms returns 0x00000000
T1310 003:152.440 JLINK_ReadReg(FPS22)
T1310 003:152.453 - 0.020ms returns 0x00000000
T1310 003:152.468 JLINK_ReadReg(FPS23)
T1310 003:152.481 - 0.020ms returns 0x00000000
T1310 003:152.496 JLINK_ReadReg(FPS24)
T1310 003:152.510 - 0.020ms returns 0x00000000
T1310 003:152.524 JLINK_ReadReg(FPS25)
T1310 003:152.538 - 0.020ms returns 0x00000000
T1310 003:152.552 JLINK_ReadReg(FPS26)
T1310 003:152.566 - 0.020ms returns 0x00000000
T1310 003:152.580 JLINK_ReadReg(FPS27)
T1310 003:152.594 - 0.020ms returns 0x00000000
T1310 003:152.609 JLINK_ReadReg(FPS28)
T1310 003:152.623 - 0.020ms returns 0x00000000
T1310 003:152.637 JLINK_ReadReg(FPS29)
T1310 003:152.651 - 0.020ms returns 0x00000000
T1310 003:152.666 JLINK_ReadReg(FPS30)
T1310 003:152.679 - 0.020ms returns 0x00000000
T1310 003:152.694 JLINK_ReadReg(FPS31)
T1310 003:152.722 - 0.039ms returns 0xFFFFFFFF
TB0F8 003:235.700 JLINK_ReadMemEx(0x08000370, 0x2 Bytes, Flags = 0x02000000)
TB0F8 003:235.744    -- Read from C cache (2 bytes @ 0x08000370)
TB0F8 003:235.772   Data:  06 48
TB0F8 003:235.804 - 0.113ms returns 2 (0x2)
TB0F8 003:235.825 JLINK_HasError()
TB0F8 003:235.851 JLINK_SetBPEx(Addr = 0x08010634, Type = 0xFFFFFFF2)
TB0F8 003:235.882 - 0.041ms returns 0x00000001
TB0F8 003:235.904 JLINK_HasError()
TB0F8 003:235.925 JLINK_HasError()
TB0F8 003:235.947 JLINK_Go()
TB0F8 003:235.981   CPU_WriteMem(4 bytes @ 0xE0002000)
TB0F8 003:236.924   CPU_ReadMem(4 bytes @ 0xE0001000)
TB0F8 003:237.669   CPU_WriteMem(4 bytes @ 0xE0002008)
TB0F8 003:237.703   CPU_WriteMem(4 bytes @ 0xE000200C)
TB0F8 003:237.724   CPU_WriteMem(4 bytes @ 0xE0002010)
TB0F8 003:237.744   CPU_WriteMem(4 bytes @ 0xE0002014)
TB0F8 003:237.764   CPU_WriteMem(4 bytes @ 0xE0002018)
TB0F8 003:237.784   CPU_WriteMem(4 bytes @ 0xE000201C)
TB0F8 003:237.869   CPU_WriteMem(4 bytes @ 0xE0002020)
TB0F8 003:237.898   CPU_WriteMem(4 bytes @ 0xE0002024)
TB0F8 003:239.658   CPU_WriteMem(4 bytes @ 0xE0001004)
TB0F8 003:241.370 - 5.439ms
TB0F8 003:342.370 JLINK_HasError()
TB0F8 003:342.425 JLINK_IsHalted()
TB0F8 003:345.294 - 2.892ms returns TRUE
TB0F8 003:345.334 JLINK_HasError()
TB0F8 003:345.358 JLINK_Halt()
TB0F8 003:345.378 - 0.029ms returns 0x00
TB0F8 003:345.410 JLINK_IsHalted()
TB0F8 003:345.430 - 0.031ms returns TRUE
TB0F8 003:345.452 JLINK_IsHalted()
TB0F8 003:345.472 - 0.030ms returns TRUE
TB0F8 003:345.493 JLINK_IsHalted()
TB0F8 003:345.513 - 0.029ms returns TRUE
TB0F8 003:345.535 JLINK_HasError()
TB0F8 003:345.557 JLINK_ReadReg(R15 (PC))
TB0F8 003:345.583 - 0.035ms returns 0x08010634
TB0F8 003:345.604 JLINK_ReadReg(XPSR)
TB0F8 003:345.625 - 0.031ms returns 0x61000000
TB0F8 003:345.652 JLINK_HasError()
TB0F8 003:345.673 JLINK_ClrBPEx(BPHandle = 0x00000001)
TB0F8 003:345.695 - 0.032ms returns 0x00
TB0F8 003:345.716 JLINK_HasError()
TB0F8 003:345.738 JLINK_HasError()
TB0F8 003:345.759 JLINK_ReadMemU32(0xE000ED30, 0x1 Items)
TB0F8 003:345.789   CPU_ReadMem(4 bytes @ 0xE000ED30)
TB0F8 003:346.558   Data:  02 00 00 00
TB0F8 003:346.586 - 0.835ms returns 1 (0x1)
TB0F8 003:346.605 JLINK_ReadMemU32(0xE0001028, 0x1 Items)
TB0F8 003:346.624   CPU_ReadMem(4 bytes @ 0xE0001028)
TB0F8 003:347.306   Data:  00 00 00 00
TB0F8 003:347.337   Debug reg: DWT_FUNC[0]
TB0F8 003:347.357 - 0.759ms returns 1 (0x1)
TB0F8 003:347.375 JLINK_ReadMemU32(0xE0001038, 0x1 Items)
TB0F8 003:347.395   CPU_ReadMem(4 bytes @ 0xE0001038)
TB0F8 003:348.062   Data:  00 02 00 00
TB0F8 003:348.095   Debug reg: DWT_FUNC[1]
TB0F8 003:348.115 - 0.746ms returns 1 (0x1)
TB0F8 003:348.133 JLINK_ReadMemU32(0xE0001048, 0x1 Items)
TB0F8 003:348.153   CPU_ReadMem(4 bytes @ 0xE0001048)
TB0F8 003:348.932   Data:  00 00 00 00
TB0F8 003:348.964   Debug reg: DWT_FUNC[2]
TB0F8 003:348.984 - 0.858ms returns 1 (0x1)
TB0F8 003:349.002 JLINK_ReadMemU32(0xE0001058, 0x1 Items)
TB0F8 003:349.023   CPU_ReadMem(4 bytes @ 0xE0001058)
TB0F8 003:349.811   Data:  00 00 00 00
TB0F8 003:349.842   Debug reg: DWT_FUNC[3]
TB0F8 003:349.862 - 0.867ms returns 1 (0x1)
TB0F8 003:350.224 JLINK_HasError()
TB0F8 003:350.253 JLINK_ReadReg(R0)
TB0F8 003:350.273 - 0.026ms returns 0x08010635
TB0F8 003:350.288 JLINK_ReadReg(R1)
TB0F8 003:350.303 - 0.021ms returns 0x24074670
TB0F8 003:350.318 JLINK_ReadReg(R2)
TB0F8 003:350.332 - 0.021ms returns 0x00000000
TB0F8 003:350.347 JLINK_ReadReg(R3)
TB0F8 003:350.361 - 0.021ms returns 0x0800E99D
TB0F8 003:350.376 JLINK_ReadReg(R4)
TB0F8 003:350.390 - 0.020ms returns 0x08015078
TB0F8 003:350.404 JLINK_ReadReg(R5)
TB0F8 003:350.418 - 0.020ms returns 0x08015078
TB0F8 003:350.433 JLINK_ReadReg(R6)
TB0F8 003:350.447 - 0.020ms returns 0x00000000
TB0F8 003:350.461 JLINK_ReadReg(R7)
TB0F8 003:350.475 - 0.020ms returns 0x00000000
TB0F8 003:350.490 JLINK_ReadReg(R8)
TB0F8 003:350.504 - 0.020ms returns 0x00000000
TB0F8 003:350.518 JLINK_ReadReg(R9)
TB0F8 003:350.532 - 0.020ms returns 0x00000000
TB0F8 003:350.556 JLINK_ReadReg(R10)
TB0F8 003:350.579 - 0.034ms returns 0x00000000
TB0F8 003:350.604 JLINK_ReadReg(R11)
TB0F8 003:350.622 - 0.026ms returns 0x00000000
TB0F8 003:350.638 JLINK_ReadReg(R12)
TB0F8 003:350.652 - 0.021ms returns 0x00000000
TB0F8 003:350.667 JLINK_ReadReg(R13 (SP))
TB0F8 003:350.681 - 0.021ms returns 0x24074670
TB0F8 003:350.695 JLINK_ReadReg(R14)
TB0F8 003:350.717 - 0.029ms returns 0x08000D55
TB0F8 003:350.733 JLINK_ReadReg(R15 (PC))
TB0F8 003:350.753 - 0.030ms returns 0x08010634
TB0F8 003:350.774 JLINK_ReadReg(XPSR)
TB0F8 003:350.794 - 0.028ms returns 0x61000000
TB0F8 003:350.813 JLINK_ReadReg(MSP)
TB0F8 003:350.832 - 0.027ms returns 0x24074670
TB0F8 003:350.851 JLINK_ReadReg(PSP)
TB0F8 003:350.871 - 0.028ms returns 0x00000000
TB0F8 003:350.891 JLINK_ReadReg(CFBP)
TB0F8 003:350.910 - 0.027ms returns 0x00000000
TB0F8 003:350.929 JLINK_ReadReg(FPSCR)
TB0F8 003:354.768 - 3.861ms returns 0x00000000
TB0F8 003:354.808 JLINK_ReadReg(FPS0)
TB0F8 003:354.829 - 0.028ms returns 0x00000000
TB0F8 003:354.844 JLINK_ReadReg(FPS1)
TB0F8 003:354.858 - 0.021ms returns 0x00000000
TB0F8 003:354.873 JLINK_ReadReg(FPS2)
TB0F8 003:354.887 - 0.021ms returns 0x00000000
TB0F8 003:354.902 JLINK_ReadReg(FPS3)
TB0F8 003:354.916 - 0.021ms returns 0x00000000
TB0F8 003:354.931 JLINK_ReadReg(FPS4)
TB0F8 003:354.945 - 0.020ms returns 0x00000000
TB0F8 003:354.960 JLINK_ReadReg(FPS5)
TB0F8 003:354.973 - 0.020ms returns 0x00000000
TB0F8 003:354.988 JLINK_ReadReg(FPS6)
TB0F8 003:355.002 - 0.020ms returns 0x00000000
TB0F8 003:355.016 JLINK_ReadReg(FPS7)
TB0F8 003:355.030 - 0.020ms returns 0x00000000
TB0F8 003:355.045 JLINK_ReadReg(FPS8)
TB0F8 003:355.058 - 0.020ms returns 0x00000000
TB0F8 003:355.073 JLINK_ReadReg(FPS9)
TB0F8 003:355.087 - 0.020ms returns 0x00000000
TB0F8 003:355.101 JLINK_ReadReg(FPS10)
TB0F8 003:355.115 - 0.020ms returns 0x00000000
TB0F8 003:355.130 JLINK_ReadReg(FPS11)
TB0F8 003:355.144 - 0.020ms returns 0x00000000
TB0F8 003:355.158 JLINK_ReadReg(FPS12)
TB0F8 003:355.172 - 0.020ms returns 0x00000000
TB0F8 003:355.187 JLINK_ReadReg(FPS13)
TB0F8 003:355.200 - 0.020ms returns 0x00000000
TB0F8 003:355.215 JLINK_ReadReg(FPS14)
TB0F8 003:355.229 - 0.020ms returns 0x00000000
TB0F8 003:355.243 JLINK_ReadReg(FPS15)
TB0F8 003:355.257 - 0.020ms returns 0xFFFFFFFF
TB0F8 003:355.272 JLINK_ReadReg(FPS16)
TB0F8 003:355.285 - 0.020ms returns 0x00000000
TB0F8 003:355.300 JLINK_ReadReg(FPS17)
TB0F8 003:355.315 - 0.021ms returns 0x00000000
TB0F8 003:355.329 JLINK_ReadReg(FPS18)
TB0F8 003:355.343 - 0.020ms returns 0x00000000
TB0F8 003:355.358 JLINK_ReadReg(FPS19)
TB0F8 003:355.371 - 0.020ms returns 0x00000000
TB0F8 003:355.386 JLINK_ReadReg(FPS20)
TB0F8 003:355.399 - 0.020ms returns 0x00000000
TB0F8 003:355.414 JLINK_ReadReg(FPS21)
TB0F8 003:355.428 - 0.020ms returns 0x00000000
TB0F8 003:355.442 JLINK_ReadReg(FPS22)
TB0F8 003:355.456 - 0.020ms returns 0x00000000
TB0F8 003:355.470 JLINK_ReadReg(FPS23)
TB0F8 003:355.484 - 0.020ms returns 0x00000000
TB0F8 003:355.505 JLINK_ReadReg(FPS24)
TB0F8 003:355.520 - 0.021ms returns 0x00000000
TB0F8 003:355.534 JLINK_ReadReg(FPS25)
TB0F8 003:355.548 - 0.020ms returns 0x00000000
TB0F8 003:355.563 JLINK_ReadReg(FPS26)
TB0F8 003:355.577 - 0.020ms returns 0x00000000
TB0F8 003:355.591 JLINK_ReadReg(FPS27)
TB0F8 003:355.605 - 0.020ms returns 0x00000000
TB0F8 003:355.620 JLINK_ReadReg(FPS28)
TB0F8 003:355.634 - 0.021ms returns 0x00000000
TB0F8 003:355.649 JLINK_ReadReg(FPS29)
TB0F8 003:355.663 - 0.020ms returns 0x00000000
TB0F8 003:355.677 JLINK_ReadReg(FPS30)
TB0F8 003:355.691 - 0.020ms returns 0x00000000
TB0F8 003:355.706 JLINK_ReadReg(FPS31)
TB0F8 003:355.719 - 0.020ms returns 0xFFFFFFFF
TB0F8 003:355.739 JLINK_ReadMemEx(0x240000C8, 0x4 Bytes, Flags = 0x02000000)
TB0F8 003:355.766   CPU_ReadMem(64 bytes @ 0x240000C0)
TB0F8 003:357.069    -- Updating C cache (64 bytes @ 0x240000C0)
TB0F8 003:357.100    -- Read from C cache (4 bytes @ 0x240000C8)
TB0F8 003:357.121   Data:  00 00 00 00
TB0F8 003:357.142 - 1.409ms returns 4 (0x4)
TB0F8 009:166.319 JLINK_ReadMemEx(0x08010634, 0x2 Bytes, Flags = 0x02000000)
TB0F8 009:166.389   CPU_ReadMem(64 bytes @ 0x08010600)
TB0F8 009:167.446    -- Updating C cache (64 bytes @ 0x08010600)
TB0F8 009:167.477    -- Read from C cache (2 bytes @ 0x08010634)
TB0F8 009:167.497   Data:  F6 F7
TB0F8 009:167.516 - 1.203ms returns 2 (0x2)
TB0F8 009:167.532 JLINK_HasError()
TB0F8 009:167.547 JLINK_SetBPEx(Addr = 0x0800D3A4, Type = 0xFFFFFFF2)
TB0F8 009:167.564 - 0.022ms returns 0x00000002
TB0F8 009:167.578 JLINK_HasError()
TB0F8 009:167.591 JLINK_HasError()
TB0F8 009:167.605 JLINK_Go()
TB0F8 009:168.319   CPU_WriteMem(4 bytes @ 0xE0002000)
TB0F8 009:169.107   CPU_ReadMem(4 bytes @ 0xE0001000)
TB0F8 009:169.820   CPU_WriteMem(4 bytes @ 0xE0002008)
TB0F8 009:171.500 - 3.913ms
TB0F8 009:271.837 JLINK_HasError()
TB0F8 009:271.896 JLINK_IsHalted()
TB0F8 009:272.703 - 0.823ms returns FALSE
TB0F8 009:372.977 JLINK_HasError()
TB0F8 009:373.059 JLINK_IsHalted()
TB0F8 009:373.904 - 0.862ms returns FALSE
TB0F8 009:474.555 JLINK_HasError()
TB0F8 009:474.631 JLINK_IsHalted()
TB0F8 009:475.568 - 0.965ms returns FALSE
TB0F8 009:576.582 JLINK_HasError()
TB0F8 009:576.639 JLINK_IsHalted()
TB0F8 009:577.472 - 0.850ms returns FALSE
TB0F8 009:678.191 JLINK_HasError()
TB0F8 009:678.240 JLINK_HasError()
TB0F8 009:678.261 JLINK_ReadMemU32(0xE0001004, 0x1 Items)
TB0F8 009:678.298   CPU_ReadMem(4 bytes @ 0xE0001004)
TB0F8 009:679.145   Data:  EC 0C 91 0D
TB0F8 009:679.197   Debug reg: DWT_CYCCNT
TB0F8 009:679.224 - 0.973ms returns 1 (0x1)
TB0F8 009:679.488 JLINK_IsHalted()
TB0F8 009:682.315 - 2.848ms returns TRUE
TB0F8 009:682.359 JLINK_HasError()
TB0F8 009:682.384 JLINK_Halt()
TB0F8 009:682.403 - 0.028ms returns 0x00
TB0F8 009:682.426 JLINK_IsHalted()
TB0F8 009:682.445 - 0.028ms returns TRUE
TB0F8 009:682.468 JLINK_IsHalted()
TB0F8 009:682.487 - 0.027ms returns TRUE
TB0F8 009:682.509 JLINK_IsHalted()
TB0F8 009:682.528 - 0.027ms returns TRUE
TB0F8 009:682.551 JLINK_HasError()
TB0F8 009:682.575 JLINK_ReadReg(R15 (PC))
TB0F8 009:682.597 - 0.031ms returns 0x0800D3A4
TB0F8 009:682.620 JLINK_ReadReg(XPSR)
TB0F8 009:682.640 - 0.029ms returns 0x01000000
TB0F8 009:682.709 JLINK_HasError()
TB0F8 009:682.732 JLINK_ClrBPEx(BPHandle = 0x00000002)
TB0F8 009:682.753 - 0.030ms returns 0x00
TB0F8 009:682.774 JLINK_HasError()
TB0F8 009:682.794 JLINK_HasError()
TB0F8 009:682.814 JLINK_ReadMemU32(0xE000ED30, 0x1 Items)
TB0F8 009:682.839   CPU_ReadMem(4 bytes @ 0xE000ED30)
TB0F8 009:683.580   Data:  02 00 00 00
TB0F8 009:683.604 - 0.796ms returns 1 (0x1)
TB0F8 009:683.619 JLINK_ReadMemU32(0xE0001028, 0x1 Items)
TB0F8 009:683.636   CPU_ReadMem(4 bytes @ 0xE0001028)
TB0F8 009:684.330   Data:  00 00 00 00
TB0F8 009:684.352   Debug reg: DWT_FUNC[0]
TB0F8 009:684.370 - 0.757ms returns 1 (0x1)
TB0F8 009:684.385 JLINK_ReadMemU32(0xE0001038, 0x1 Items)
TB0F8 009:684.400   CPU_ReadMem(4 bytes @ 0xE0001038)
TB0F8 009:685.088   Data:  00 02 00 00
TB0F8 009:685.111   Debug reg: DWT_FUNC[1]
TB0F8 009:685.130 - 0.751ms returns 1 (0x1)
TB0F8 009:685.145 JLINK_ReadMemU32(0xE0001048, 0x1 Items)
TB0F8 009:685.160   CPU_ReadMem(4 bytes @ 0xE0001048)
TB0F8 009:685.830   Data:  00 00 00 00
TB0F8 009:685.852   Debug reg: DWT_FUNC[2]
TB0F8 009:685.871 - 0.732ms returns 1 (0x1)
TB0F8 009:685.891 JLINK_ReadMemU32(0xE0001058, 0x1 Items)
TB0F8 009:685.906   CPU_ReadMem(4 bytes @ 0xE0001058)
TB0F8 009:686.586   Data:  00 00 00 00
TB0F8 009:686.628   Debug reg: DWT_FUNC[3]
TB0F8 009:686.656 - 0.778ms returns 1 (0x1)
TB0F8 009:686.841 JLINK_HasError()
TB0F8 009:686.865 JLINK_ReadReg(R0)
TB0F8 009:686.888 - 0.032ms returns 0x00000000
TB0F8 009:686.908 JLINK_ReadReg(R1)
TB0F8 009:686.928 - 0.029ms returns 0xA5A5A5A5
TB0F8 009:686.948 JLINK_ReadReg(R2)
TB0F8 009:686.968 - 0.028ms returns 0xA5A5A5A5
TB0F8 009:686.988 JLINK_ReadReg(R3)
TB0F8 009:687.007 - 0.028ms returns 0xA5A5A5A5
TB0F8 009:687.027 JLINK_ReadReg(R4)
TB0F8 009:687.047 - 0.029ms returns 0x00000000
TB0F8 009:687.067 JLINK_ReadReg(R5)
TB0F8 009:687.086 - 0.028ms returns 0xA5A5A5A5
TB0F8 009:687.106 JLINK_ReadReg(R6)
TB0F8 009:687.125 - 0.028ms returns 0xA5A5A5A5
TB0F8 009:687.146 JLINK_ReadReg(R7)
TB0F8 009:687.165 - 0.028ms returns 0xA5A5A5A5
TB0F8 009:687.185 JLINK_ReadReg(R8)
TB0F8 009:687.204 - 0.028ms returns 0xA5A5A5A5
TB0F8 009:687.225 JLINK_ReadReg(R9)
TB0F8 009:687.244 - 0.028ms returns 0xA5A5A5A5
TB0F8 009:687.264 JLINK_ReadReg(R10)
TB0F8 009:687.283 - 0.028ms returns 0xA5A5A5A5
TB0F8 009:687.303 JLINK_ReadReg(R11)
TB0F8 009:687.322 - 0.028ms returns 0xA5A5A5A5
TB0F8 009:687.343 JLINK_ReadReg(R12)
TB0F8 009:687.362 - 0.028ms returns 0xA5A5A5A5
TB0F8 009:687.382 JLINK_ReadReg(R13 (SP))
TB0F8 009:687.401 - 0.029ms returns 0x24016758
TB0F8 009:687.422 JLINK_ReadReg(R14)
TB0F8 009:687.441 - 0.028ms returns 0x0800D2A5
TB0F8 009:687.461 JLINK_ReadReg(R15 (PC))
TB0F8 009:687.490 - 0.038ms returns 0x0800D3A4
TB0F8 009:687.510 JLINK_ReadReg(XPSR)
TB0F8 009:687.535 - 0.039ms returns 0x01000000
TB0F8 009:687.562 JLINK_ReadReg(MSP)
TB0F8 009:687.581 - 0.028ms returns 0x24074650
TB0F8 009:687.601 JLINK_ReadReg(PSP)
TB0F8 009:687.620 - 0.028ms returns 0x24016758
TB0F8 009:687.640 JLINK_ReadReg(CFBP)
TB0F8 009:687.659 - 0.028ms returns 0x02000000
TB0F8 009:687.683 JLINK_ReadReg(FPSCR)
TB0F8 009:691.528 - 3.866ms returns 0x20000001
TB0F8 009:691.564 JLINK_ReadReg(FPS0)
TB0F8 009:691.584 - 0.025ms returns 0x00000000
TB0F8 009:691.599 JLINK_ReadReg(FPS1)
TB0F8 009:691.613 - 0.020ms returns 0x4E64E1C0
TB0F8 009:691.627 JLINK_ReadReg(FPS2)
TB0F8 009:691.640 - 0.019ms returns 0x1C9C3800
TB0F8 009:691.654 JLINK_ReadReg(FPS3)
TB0F8 009:691.667 - 0.019ms returns 0x4DE4E1C0
TB0F8 009:691.680 JLINK_ReadReg(FPS4)
TB0F8 009:691.693 - 0.019ms returns 0x4A742400
TB0F8 009:691.707 JLINK_ReadReg(FPS5)
TB0F8 009:691.720 - 0.019ms returns 0x00000000
TB0F8 009:691.734 JLINK_ReadReg(FPS6)
TB0F8 009:691.748 - 0.020ms returns 0x00000000
TB0F8 009:691.762 JLINK_ReadReg(FPS7)
TB0F8 009:691.775 - 0.019ms returns 0x00000000
TB0F8 009:691.788 JLINK_ReadReg(FPS8)
TB0F8 009:691.801 - 0.019ms returns 0x00000000
TB0F8 009:691.815 JLINK_ReadReg(FPS9)
TB0F8 009:691.828 - 0.019ms returns 0x00000000
TB0F8 009:691.841 JLINK_ReadReg(FPS10)
TB0F8 009:691.854 - 0.020ms returns 0x00000000
TB0F8 009:691.869 JLINK_ReadReg(FPS11)
TB0F8 009:691.881 - 0.019ms returns 0x00000000
TB0F8 009:691.895 JLINK_ReadReg(FPS12)
TB0F8 009:691.908 - 0.019ms returns 0x00000000
TB0F8 009:691.921 JLINK_ReadReg(FPS13)
TB0F8 009:691.934 - 0.019ms returns 0x00000000
TB0F8 009:691.948 JLINK_ReadReg(FPS14)
TB0F8 009:691.960 - 0.019ms returns 0x00000000
TB0F8 009:691.974 JLINK_ReadReg(FPS15)
TB0F8 009:691.987 - 0.019ms returns 0xFFFFFFFF
TB0F8 009:692.000 JLINK_ReadReg(FPS16)
TB0F8 009:692.013 - 0.019ms returns 0x00000000
TB0F8 009:692.027 JLINK_ReadReg(FPS17)
TB0F8 009:692.039 - 0.019ms returns 0x00000000
TB0F8 009:692.053 JLINK_ReadReg(FPS18)
TB0F8 009:692.066 - 0.019ms returns 0x00000000
TB0F8 009:692.079 JLINK_ReadReg(FPS19)
TB0F8 009:692.092 - 0.019ms returns 0x00000000
TB0F8 009:692.106 JLINK_ReadReg(FPS20)
TB0F8 009:692.118 - 0.019ms returns 0x00000000
TB0F8 009:692.132 JLINK_ReadReg(FPS21)
TB0F8 009:692.145 - 0.019ms returns 0x00000000
TB0F8 009:692.158 JLINK_ReadReg(FPS22)
TB0F8 009:692.171 - 0.019ms returns 0x00000000
TB0F8 009:692.185 JLINK_ReadReg(FPS23)
TB0F8 009:692.197 - 0.019ms returns 0x00000000
TB0F8 009:692.211 JLINK_ReadReg(FPS24)
TB0F8 009:692.224 - 0.019ms returns 0x00000000
TB0F8 009:692.237 JLINK_ReadReg(FPS25)
TB0F8 009:692.250 - 0.019ms returns 0x00000000
TB0F8 009:692.264 JLINK_ReadReg(FPS26)
TB0F8 009:692.276 - 0.019ms returns 0x00000000
TB0F8 009:692.295 JLINK_ReadReg(FPS27)
TB0F8 009:692.308 - 0.019ms returns 0x00000000
TB0F8 009:692.322 JLINK_ReadReg(FPS28)
TB0F8 009:692.335 - 0.019ms returns 0x00000000
TB0F8 009:692.349 JLINK_ReadReg(FPS29)
TB0F8 009:692.361 - 0.019ms returns 0x00000000
TB0F8 009:692.375 JLINK_ReadReg(FPS30)
TB0F8 009:692.388 - 0.019ms returns 0x00000000
TB0F8 009:692.401 JLINK_ReadReg(FPS31)
TB0F8 009:692.414 - 0.019ms returns 0xFFFFFFFF
TB0F8 009:692.432 JLINK_ReadMemEx(0x240000C8, 0x4 Bytes, Flags = 0x02000000)
TB0F8 009:692.453   CPU_ReadMem(64 bytes @ 0x240000C0)
TB0F8 009:693.839    -- Updating C cache (64 bytes @ 0x240000C0)
TB0F8 009:693.882    -- Read from C cache (4 bytes @ 0x240000C8)
TB0F8 009:693.910   Data:  0E 00 00 00
TB0F8 009:693.937 - 1.514ms returns 4 (0x4)
TB0F8 009:693.962 JLINK_ReadMemEx(0x240000B8, 0x4 Bytes, Flags = 0x02000000)
TB0F8 009:693.986   CPU_ReadMem(64 bytes @ 0x24000080)
TB0F8 009:694.954    -- Updating C cache (64 bytes @ 0x24000080)
TB0F8 009:694.988    -- Read from C cache (4 bytes @ 0x240000B8)
TB0F8 009:695.017   Data:  68 67 01 24
TB0F8 009:695.045 - 1.092ms returns 4 (0x4)
T1310 009:697.072 JLINK_ReadMemEx(0x08014169, 0xF Bytes, Flags = 0x02000000)
T1310 009:697.101   CPU_ReadMem(64 bytes @ 0x08014140)
T1310 009:698.086    -- Updating C cache (64 bytes @ 0x08014140)
T1310 009:698.118    -- Read from C cache (15 bytes @ 0x08014169)
T1310 009:698.138   Data:  53 79 73 4D 61 6E 61 67 65 5F 54 61 73 6B 00
T1310 009:698.156 - 1.090ms returns 15 (0xF)
T1310 009:699.727 JLINK_ReadMemEx(0x08014169, 0xF Bytes, Flags = 0x02000000)
T1310 009:699.750    -- Read from C cache (15 bytes @ 0x08014169)
T1310 009:699.770   Data:  53 79 73 4D 61 6E 61 67 65 5F 54 61 73 6B 00
T1310 009:699.789 - 0.068ms returns 15 (0xF)
TB0F8 010:572.013 JLINK_ReadMemEx(0x0800D3A4, 0x3C Bytes, Flags = 0x02000000)
TB0F8 010:572.075   CPU_ReadMem(128 bytes @ 0x0800D380)
TB0F8 010:573.367    -- Updating C cache (128 bytes @ 0x0800D380)
TB0F8 010:573.393    -- Read from C cache (60 bytes @ 0x0800D3A4)
TB0F8 010:573.413   Data:  0C 48 FF F7 54 F9 FF F7 7D FF 12 E0 4F F0 FF 33 ...
TB0F8 010:573.433 - 1.425ms returns 60 (0x3C)
TB0F8 010:573.448 JLINK_ReadMemEx(0x0800D3A4, 0x2 Bytes, Flags = 0x02000000)
TB0F8 010:573.462    -- Read from C cache (2 bytes @ 0x0800D3A4)
TB0F8 010:573.480   Data:  0C 48
TB0F8 010:573.501 - 0.058ms returns 2 (0x2)
TB0F8 010:573.516 JLINK_ReadMemEx(0x0800D3A6, 0x2 Bytes, Flags = 0x02000000)
TB0F8 010:573.528    -- Read from C cache (2 bytes @ 0x0800D3A6)
TB0F8 010:573.547   Data:  FF F7
TB0F8 010:573.566 - 0.056ms returns 2 (0x2)
TB0F8 010:573.580 JLINK_ReadMemEx(0x0800D3A4, 0x2 Bytes, Flags = 0x02000000)
TB0F8 010:573.593    -- Read from C cache (2 bytes @ 0x0800D3A4)
TB0F8 010:573.611   Data:  0C 48
TB0F8 010:573.629 - 0.054ms returns 2 (0x2)
TB0F8 010:573.643 JLINK_HasError()
TB0F8 010:573.658 JLINK_Step()
TB0F8 010:574.365    -- Read from C cache (2 bytes @ 0x0800D3A4)
TB0F8 010:574.395   CPU_ReadMem(4 bytes @ 0xE000ED18)
TB0F8 010:575.104   CPU_WriteMem(4 bytes @ 0xE000ED18)
TB0F8 010:575.933   CPU_ReadMem(4 bytes @ 0xE000ED18)
TB0F8 010:576.624   CPU_WriteMem(4 bytes @ 0xE000ED18)
TB0F8 010:577.387    -- Read from C cache (4 bytes @ 0x0800D3D8)
TB0F8 010:577.422   -- Simulated
TB0F8 010:577.457 - 3.808ms returns 0
TB0F8 010:577.488 JLINK_HasError()
TB0F8 010:577.513 JLINK_ReadReg(R15 (PC))
TB0F8 010:577.535 - 0.031ms returns 0x0800D3A6
TB0F8 010:577.558 JLINK_ReadReg(XPSR)
TB0F8 010:577.577 - 0.028ms returns 0x01000000
TB0F8 010:577.648 JLINK_ReadMemEx(0x0800D3A6, 0x2 Bytes, Flags = 0x02000000)
TB0F8 010:577.675    -- Read from C cache (2 bytes @ 0x0800D3A6)
TB0F8 010:577.703   Data:  FF F7
TB0F8 010:577.730 - 0.090ms returns 2 (0x2)
TB0F8 010:577.750 JLINK_ReadMemEx(0x0800D3A8, 0x3C Bytes, Flags = 0x02000000)
TB0F8 010:577.769    -- Read from C cache (60 bytes @ 0x0800D3A8)
TB0F8 010:577.797   Data:  54 F9 FF F7 7D FF 12 E0 4F F0 FF 33 00 22 01 21 ...
TB0F8 010:577.823 - 0.082ms returns 60 (0x3C)
TB0F8 010:577.842 JLINK_ReadMemEx(0x0800D3A8, 0x2 Bytes, Flags = 0x02000000)
TB0F8 010:577.861    -- Read from C cache (2 bytes @ 0x0800D3A8)
TB0F8 010:577.888   Data:  54 F9
TB0F8 010:577.914 - 0.080ms returns 2 (0x2)
TB0F8 010:578.334 JLINK_HasError()
TB0F8 010:578.361 JLINK_Step()
TB0F8 010:578.383    -- Read from C cache (2 bytes @ 0x0800D3A6)
TB0F8 010:578.412    -- Read from C cache (2 bytes @ 0x0800D3A8)
TB0F8 010:578.441   -- Simulated
TB0F8 010:578.468 - 0.116ms returns 0
TB0F8 010:578.487 JLINK_HasError()
TB0F8 010:578.507 JLINK_ReadReg(R15 (PC))
TB0F8 010:578.526 - 0.028ms returns 0x0800C652
TB0F8 010:578.546 JLINK_ReadReg(XPSR)
TB0F8 010:578.564 - 0.027ms returns 0x01000000
TB0F8 010:578.776 JLINK_HasError()
TB0F8 010:578.793 JLINK_ReadReg(R0)
TB0F8 010:578.807 - 0.019ms returns 0x2400013A
TB0F8 010:578.820 JLINK_ReadReg(R1)
TB0F8 010:578.832 - 0.018ms returns 0xA5A5A5A5
TB0F8 010:578.845 JLINK_ReadReg(R2)
TB0F8 010:578.858 - 0.018ms returns 0xA5A5A5A5
TB0F8 010:578.871 JLINK_ReadReg(R3)
TB0F8 010:578.883 - 0.018ms returns 0xA5A5A5A5
TB0F8 010:578.896 JLINK_ReadReg(R4)
TB0F8 010:578.909 - 0.018ms returns 0x00000000
TB0F8 010:578.922 JLINK_ReadReg(R5)
TB0F8 010:578.934 - 0.018ms returns 0xA5A5A5A5
TB0F8 010:578.947 JLINK_ReadReg(R6)
TB0F8 010:578.960 - 0.018ms returns 0xA5A5A5A5
TB0F8 010:578.973 JLINK_ReadReg(R7)
TB0F8 010:578.991 - 0.024ms returns 0xA5A5A5A5
TB0F8 010:579.004 JLINK_ReadReg(R8)
TB0F8 010:579.017 - 0.018ms returns 0xA5A5A5A5
TB0F8 010:579.030 JLINK_ReadReg(R9)
TB0F8 010:579.042 - 0.018ms returns 0xA5A5A5A5
TB0F8 010:579.055 JLINK_ReadReg(R10)
TB0F8 010:579.068 - 0.018ms returns 0xA5A5A5A5
TB0F8 010:579.081 JLINK_ReadReg(R11)
TB0F8 010:579.093 - 0.018ms returns 0xA5A5A5A5
TB0F8 010:579.106 JLINK_ReadReg(R12)
TB0F8 010:579.119 - 0.018ms returns 0xA5A5A5A5
TB0F8 010:579.132 JLINK_ReadReg(R13 (SP))
TB0F8 010:579.144 - 0.018ms returns 0x24016758
TB0F8 010:579.157 JLINK_ReadReg(R14)
TB0F8 010:579.170 - 0.018ms returns 0x0800D3AB
TB0F8 010:579.183 JLINK_ReadReg(R15 (PC))
TB0F8 010:579.195 - 0.018ms returns 0x0800C652
TB0F8 010:579.208 JLINK_ReadReg(XPSR)
TB0F8 010:579.221 - 0.018ms returns 0x01000000
TB0F8 010:579.234 JLINK_ReadReg(MSP)
TB0F8 010:579.246 - 0.018ms returns 0x24074650
TB0F8 010:579.259 JLINK_ReadReg(PSP)
TB0F8 010:579.271 - 0.018ms returns 0x24016758
TB0F8 010:579.284 JLINK_ReadReg(CFBP)
TB0F8 010:579.297 - 0.018ms returns 0x02000000
TB0F8 010:579.310 JLINK_ReadReg(FPSCR)
TB0F8 010:579.323 - 0.018ms returns 0x20000001
TB0F8 010:579.336 JLINK_ReadReg(FPS0)
TB0F8 010:579.348 - 0.018ms returns 0x00000000
TB0F8 010:579.361 JLINK_ReadReg(FPS1)
TB0F8 010:579.374 - 0.018ms returns 0x4E64E1C0
TB0F8 010:579.387 JLINK_ReadReg(FPS2)
TB0F8 010:579.399 - 0.018ms returns 0x1C9C3800
TB0F8 010:579.412 JLINK_ReadReg(FPS3)
TB0F8 010:579.425 - 0.018ms returns 0x4DE4E1C0
TB0F8 010:579.438 JLINK_ReadReg(FPS4)
TB0F8 010:579.450 - 0.018ms returns 0x4A742400
TB0F8 010:579.463 JLINK_ReadReg(FPS5)
TB0F8 010:579.475 - 0.018ms returns 0x00000000
TB0F8 010:579.488 JLINK_ReadReg(FPS6)
TB0F8 010:579.501 - 0.018ms returns 0x00000000
TB0F8 010:579.514 JLINK_ReadReg(FPS7)
TB0F8 010:579.526 - 0.018ms returns 0x00000000
TB0F8 010:579.539 JLINK_ReadReg(FPS8)
TB0F8 010:579.552 - 0.018ms returns 0x00000000
TB0F8 010:579.565 JLINK_ReadReg(FPS9)
TB0F8 010:579.577 - 0.018ms returns 0x00000000
TB0F8 010:579.590 JLINK_ReadReg(FPS10)
TB0F8 010:579.602 - 0.018ms returns 0x00000000
TB0F8 010:579.615 JLINK_ReadReg(FPS11)
TB0F8 010:579.628 - 0.018ms returns 0x00000000
TB0F8 010:579.641 JLINK_ReadReg(FPS12)
TB0F8 010:579.653 - 0.018ms returns 0x00000000
TB0F8 010:579.666 JLINK_ReadReg(FPS13)
TB0F8 010:579.679 - 0.018ms returns 0x00000000
TB0F8 010:579.692 JLINK_ReadReg(FPS14)
TB0F8 010:579.704 - 0.018ms returns 0x00000000
TB0F8 010:579.717 JLINK_ReadReg(FPS15)
TB0F8 010:579.729 - 0.018ms returns 0xFFFFFFFF
TB0F8 010:579.742 JLINK_ReadReg(FPS16)
TB0F8 010:579.755 - 0.018ms returns 0x00000000
TB0F8 010:579.768 JLINK_ReadReg(FPS17)
TB0F8 010:579.780 - 0.018ms returns 0x00000000
TB0F8 010:579.793 JLINK_ReadReg(FPS18)
TB0F8 010:579.806 - 0.018ms returns 0x00000000
TB0F8 010:579.819 JLINK_ReadReg(FPS19)
TB0F8 010:579.831 - 0.018ms returns 0x00000000
TB0F8 010:579.844 JLINK_ReadReg(FPS20)
TB0F8 010:579.857 - 0.018ms returns 0x00000000
TB0F8 010:579.870 JLINK_ReadReg(FPS21)
TB0F8 010:579.882 - 0.018ms returns 0x00000000
TB0F8 010:579.895 JLINK_ReadReg(FPS22)
TB0F8 010:579.908 - 0.018ms returns 0x00000000
TB0F8 010:579.921 JLINK_ReadReg(FPS23)
TB0F8 010:579.933 - 0.018ms returns 0x00000000
TB0F8 010:579.946 JLINK_ReadReg(FPS24)
TB0F8 010:579.959 - 0.018ms returns 0x00000000
TB0F8 010:579.972 JLINK_ReadReg(FPS25)
TB0F8 010:579.984 - 0.018ms returns 0x00000000
TB0F8 010:579.998 JLINK_ReadReg(FPS26)
TB0F8 010:580.010 - 0.018ms returns 0x00000000
TB0F8 010:580.023 JLINK_ReadReg(FPS27)
TB0F8 010:580.035 - 0.018ms returns 0x00000000
TB0F8 010:580.049 JLINK_ReadReg(FPS28)
TB0F8 010:580.061 - 0.018ms returns 0x00000000
TB0F8 010:580.074 JLINK_ReadReg(FPS29)
TB0F8 010:580.086 - 0.018ms returns 0x00000000
TB0F8 010:580.100 JLINK_ReadReg(FPS30)
TB0F8 010:580.112 - 0.018ms returns 0x00000000
TB0F8 010:580.125 JLINK_ReadReg(FPS31)
TB0F8 010:580.137 - 0.018ms returns 0xFFFFFFFF
TB0F8 010:580.153 JLINK_ReadMemEx(0x240000C8, 0x4 Bytes, Flags = 0x02000000)
TB0F8 010:580.168    -- Read from C cache (4 bytes @ 0x240000C8)
TB0F8 010:580.188   Data:  0E 00 00 00
TB0F8 010:580.207 - 0.059ms returns 4 (0x4)
TB0F8 010:580.220 JLINK_ReadMemEx(0x240000B8, 0x4 Bytes, Flags = 0x02000000)
TB0F8 010:580.235    -- Read from C cache (4 bytes @ 0x240000B8)
TB0F8 010:580.254   Data:  68 67 01 24
TB0F8 010:580.272 - 0.057ms returns 4 (0x4)
T1310 010:580.543 JLINK_ReadMemEx(0x24016748, 0x7 Bytes, Flags = 0x02000000)
T1310 010:580.583   CPU_ReadMem(64 bytes @ 0x24016740)
T1310 010:581.598    -- Updating C cache (64 bytes @ 0x24016740)
T1310 010:581.624    -- Read from C cache (7 bytes @ 0x24016748)
T1310 010:581.642   Data:  A5 A5 A5 A5 A5 A5 A5
T1310 010:581.666 - 1.129ms returns 7 (0x7)
T1310 010:583.331 JLINK_ReadMemEx(0x24016748, 0x7 Bytes, Flags = 0x02000000)
T1310 010:583.368    -- Read from C cache (7 bytes @ 0x24016748)
T1310 010:583.405   Data:  A5 A5 A5 A5 A5 A5 A5
T1310 010:583.433 - 0.111ms returns 7 (0x7)
T1310 010:583.462 JLINK_ReadMemEx(0x08014169, 0xF Bytes, Flags = 0x02000000)
T1310 010:583.483    -- Read from C cache (15 bytes @ 0x08014169)
T1310 010:583.511   Data:  53 79 73 4D 61 6E 61 67 65 5F 54 61 73 6B 00
T1310 010:583.537 - 0.084ms returns 15 (0xF)
T1310 010:583.611 JLINK_ReadMemEx(0x0800C652, 0x2 Bytes, Flags = 0x02000000)
T1310 010:583.628   CPU_ReadMem(64 bytes @ 0x0800C640)
T1310 010:584.596    -- Updating C cache (64 bytes @ 0x0800C640)
T1310 010:584.637    -- Read from C cache (2 bytes @ 0x0800C652)
T1310 010:584.664   Data:  1C B5
T1310 010:584.699 - 1.097ms returns 2 (0x2)
T1310 010:584.722 JLINK_ReadMemEx(0x0800C654, 0x3C Bytes, Flags = 0x02000000)
T1310 010:584.744   CPU_ReadMem(64 bytes @ 0x0800C680)
T1310 010:585.732    -- Updating C cache (64 bytes @ 0x0800C680)
T1310 010:585.765    -- Read from C cache (60 bytes @ 0x0800C654)
T1310 010:585.793   Data:  04 46 00 20 00 90 01 90 07 23 6A 46 03 21 01 20 ...
T1310 010:585.828 - 1.114ms returns 60 (0x3C)
T1310 010:585.849 JLINK_ReadMemEx(0x0800C654, 0x2 Bytes, Flags = 0x02000000)
T1310 010:585.869    -- Read from C cache (2 bytes @ 0x0800C654)
T1310 010:585.896   Data:  04 46
T1310 010:585.922 - 0.082ms returns 2 (0x2)
T1310 010:585.952 JLINK_ReadMemEx(0x0800C654, 0x3C Bytes, Flags = 0x02000000)
T1310 010:585.971    -- Read from C cache (60 bytes @ 0x0800C654)
T1310 010:585.999   Data:  04 46 00 20 00 90 01 90 07 23 6A 46 03 21 01 20 ...
T1310 010:586.025 - 0.082ms returns 60 (0x3C)
T1310 010:586.044 JLINK_ReadMemEx(0x0800C654, 0x2 Bytes, Flags = 0x02000000)
T1310 010:586.063    -- Read from C cache (2 bytes @ 0x0800C654)
T1310 010:586.089   Data:  04 46
T1310 010:586.116 - 0.080ms returns 2 (0x2)
T1310 010:586.135 JLINK_ReadMemEx(0x0800C656, 0x2 Bytes, Flags = 0x02000000)
T1310 010:586.154    -- Read from C cache (2 bytes @ 0x0800C656)
T1310 010:586.181   Data:  00 20
T1310 010:586.208 - 0.081ms returns 2 (0x2)
TB0F8 011:129.277 JLINK_ReadMemEx(0x0800C652, 0x2 Bytes, Flags = 0x02000000)
TB0F8 011:129.333    -- Read from C cache (2 bytes @ 0x0800C652)
TB0F8 011:129.363   Data:  1C B5
TB0F8 011:129.391 - 0.123ms returns 2 (0x2)
TB0F8 011:129.413 JLINK_HasError()
TB0F8 011:129.437 JLINK_Step()
TB0F8 011:130.253    -- Read from C cache (2 bytes @ 0x0800C652)
TB0F8 011:130.332   CPU_WriteMem(16 bytes @ 0x24016748)
TB0F8 011:131.189   -- Simulated
TB0F8 011:131.226 - 1.794ms returns 0
TB0F8 011:131.242 JLINK_HasError()
TB0F8 011:131.256 JLINK_ReadReg(R15 (PC))
TB0F8 011:131.272 - 0.021ms returns 0x0800C654
TB0F8 011:131.286 JLINK_ReadReg(XPSR)
TB0F8 011:131.299 - 0.019ms returns 0x01000000
TB0F8 011:131.319 JLINK_HasError()
TB0F8 011:131.332 JLINK_Step()
TB0F8 011:131.346    -- Read from C cache (2 bytes @ 0x0800C654)
TB0F8 011:131.366   -- Simulated
TB0F8 011:131.385 - 0.058ms returns 0
TB0F8 011:131.398 JLINK_HasError()
TB0F8 011:131.411 JLINK_ReadReg(R15 (PC))
TB0F8 011:131.424 - 0.019ms returns 0x0800C656
TB0F8 011:131.437 JLINK_ReadReg(XPSR)
TB0F8 011:131.450 - 0.018ms returns 0x01000000
TB0F8 011:131.609 JLINK_HasError()
TB0F8 011:131.626 JLINK_ReadReg(R0)
TB0F8 011:131.645 - 0.027ms returns 0x2400013A
TB0F8 011:131.660 JLINK_ReadReg(R1)
TB0F8 011:131.673 - 0.019ms returns 0xA5A5A5A5
TB0F8 011:131.687 JLINK_ReadReg(R2)
TB0F8 011:131.700 - 0.018ms returns 0xA5A5A5A5
TB0F8 011:131.713 JLINK_ReadReg(R3)
TB0F8 011:131.726 - 0.018ms returns 0xA5A5A5A5
TB0F8 011:131.739 JLINK_ReadReg(R4)
TB0F8 011:131.752 - 0.018ms returns 0x2400013A
TB0F8 011:131.765 JLINK_ReadReg(R5)
TB0F8 011:131.778 - 0.018ms returns 0xA5A5A5A5
TB0F8 011:131.791 JLINK_ReadReg(R6)
TB0F8 011:131.803 - 0.018ms returns 0xA5A5A5A5
TB0F8 011:131.817 JLINK_ReadReg(R7)
TB0F8 011:131.829 - 0.019ms returns 0xA5A5A5A5
TB0F8 011:131.843 JLINK_ReadReg(R8)
TB0F8 011:131.856 - 0.018ms returns 0xA5A5A5A5
TB0F8 011:131.869 JLINK_ReadReg(R9)
TB0F8 011:131.882 - 0.018ms returns 0xA5A5A5A5
TB0F8 011:131.895 JLINK_ReadReg(R10)
TB0F8 011:131.907 - 0.018ms returns 0xA5A5A5A5
TB0F8 011:131.921 JLINK_ReadReg(R11)
TB0F8 011:131.933 - 0.024ms returns 0xA5A5A5A5
TB0F8 011:131.953 JLINK_ReadReg(R12)
TB0F8 011:131.966 - 0.019ms returns 0xA5A5A5A5
TB0F8 011:131.979 JLINK_ReadReg(R13 (SP))
TB0F8 011:131.992 - 0.019ms returns 0x24016748
TB0F8 011:132.005 JLINK_ReadReg(R14)
TB0F8 011:132.018 - 0.019ms returns 0x0800D3AB
TB0F8 011:132.031 JLINK_ReadReg(R15 (PC))
TB0F8 011:132.044 - 0.018ms returns 0x0800C656
TB0F8 011:132.057 JLINK_ReadReg(XPSR)
TB0F8 011:132.070 - 0.018ms returns 0x01000000
TB0F8 011:132.083 JLINK_ReadReg(MSP)
TB0F8 011:132.096 - 0.018ms returns 0x24074650
TB0F8 011:132.109 JLINK_ReadReg(PSP)
TB0F8 011:132.122 - 0.018ms returns 0x24016748
TB0F8 011:132.135 JLINK_ReadReg(CFBP)
TB0F8 011:132.147 - 0.018ms returns 0x02000000
TB0F8 011:132.161 JLINK_ReadReg(FPSCR)
TB0F8 011:132.173 - 0.018ms returns 0x20000001
TB0F8 011:132.187 JLINK_ReadReg(FPS0)
TB0F8 011:132.199 - 0.019ms returns 0x00000000
